// ============================================================================
// axi4lite_assertions.sv
//
// All `assert property` checks for axi4lite_slave
//
// ============================================================================
module axi4lite_assertions #(
  parameter int ADDR_WIDTH = 8,
  parameter int DATA_WIDTH = 32,
  parameter int NUM_REGS   = 16
)(
  input logic                    clk,
  input logic                    rst_n,

  input logic [ADDR_WIDTH-1:0]   awaddr,
  input logic                    awvalid,
  input logic                    awready,

  input logic [DATA_WIDTH-1:0]   wdata,
  input logic [DATA_WIDTH/8-1:0] wstrb,
  input logic                    wvalid,
  input logic                    wready,

  input logic [1:0]              bresp,
  input logic                    bvalid,
  input logic                    bready,

  input logic [ADDR_WIDTH-1:0]   araddr,
  input logic                    arvalid,
  input logic                    arready,

  input logic [DATA_WIDTH-1:0]   rdata,
  input logic [1:0]              rresp,
  input logic                    rvalid,
  input logic                    rready,

  // Whitebox: connect to the DUT's internal register file, e.g.
  // .regfile(dut.regfile) at the instantiation site in formal_tb.sv.
  input logic [DATA_WIDTH-1:0]   regfile [NUM_REGS]
);

  localparam logic [1:0] OKAY   = 2'b00;
  localparam logic [1:0] EXOKAY = 2'b01;
  localparam logic [1:0] SLVERR = 2'b10;
  localparam logic [1:0] DECERR = 2'b11;

  
  localparam int ADDR_LSB = $clog2(DATA_WIDTH / 8);
  
  function automatic bit in_range(logic [ADDR_WIDTH-1:0] addr);
    return (addr[ADDR_WIDTH-1:ADDR_LSB] < NUM_REGS);
  endfunction

  
  // One-shot check at elaboration time, not a formal property.
  initial begin
    assert (DATA_WIDTH == 32 || DATA_WIDTH == 64) // AXI4-Lite data bus width must be 32 or 64 bits.
      else $fatal(1, "axi4lite_assertions: DATA_WIDTH=%0d is not legal, (32 or 64 are desired)", DATA_WIDTH);
  end

  // Module-level default clocking and reset for all properties below. 
  default clocking cb @(posedge clk); endclocking
  default disable iff (!rst_n);

  // Environment constraints to prevent X propagation from the slave side.
  a_no_x_awready:  assert property (!$isunknown(awready));

  a_no_x_wready:   assert property (!$isunknown(wready));

  a_no_x_bvalid:   assert property (!$isunknown(bvalid));
  a_no_x_bresp:    assert property (bvalid |-> !$isunknown(bresp));

  a_no_x_arready:  assert property (!$isunknown(arready));

  a_no_x_rvalid:   assert property (!$isunknown(rvalid));
  a_no_x_rdata:    assert property (rvalid |-> !$isunknown(rdata));
  a_no_x_rresp:    assert property (rvalid |-> !$isunknown(rresp));

  // ****************************************************************************
  // ***** 4.1 General rules (slave-driven channels: B, R) **********************
  // ****************************************************************************

  // 1. BVALID and RVALID must be LOW during reset.
  // 
  // Explicitly disable the `disable iff` for this one, 
  // since that would mask exactly the cycle under test.
  a_bvalid_low_in_reset: assert property (disable iff (1'b0) !rst_n |-> !bvalid) 
    else $error("BVALID not held low during reset");

  a_rvalid_low_in_reset: assert property (disable iff (1'b0) !rst_n |-> !rvalid)
    else $error("RVALID not held low during reset");


  // 2. Once VALID is asserted, it must remain asserted, and the
  //    accompanying payload (address/data/control) must remain stable,
  //    until the rising clock edge after READY is seen HIGH.
  a_bvalid_stable: assert property (bvalid && !bready |=> bvalid && $stable(bresp))
    else $error("BVALID/BRESP deasserted or changed before BREADY");

  a_rvalid_stable: assert property (rvalid && !rready |=> rvalid && $stable(rdata) && $stable(rresp))
    else $error("RVALID/RDATA/RRESP deasserted or changed before RREADY");

  // ****************************************************************************
  // *********** 4.2 Specific rules for AW / W / B -- slave side **************** 
  // ****************************************************************************
  // aw_seen_q/w_seen_q track "a currently-pending AW+W pair has been
  // latched", for the property below. Two wrong ways to clear them, and
  // why this settles on a third:
  //
  //   - Clearing on BVALID&&BREADY (response *accepted*): wrong, because
  //     the DUT re-opens AWREADY/WREADY the same cycle it raises BVALID
  //     (see axi4lite_slave.sv), so it can latch a THIRD AW+W pair while
  //     a SECOND transaction's response is still outstanding waiting for
  //     BREADY. That third pair's aw_hs_done/w_hs_done stay 1 throughout
  //     -- but a BVALID&&BREADY clear here, keyed to the unrelated
  //     second transaction finally being accepted, would wipe
  //     aw_seen_q/w_seen_q out from under it, producing a false failure
  //     when it later fires for real.
  //   - Clearing the same cycle BVALID rises (an exact mirror of the
  //     DUT's own aw_hs_done/w_hs_done, which clear in that same cycle):
  //     also wrong, but more subtly -- it makes the property below
  //     unsatisfiable by construction. `$rose(bvalid) |-> aw_seen_q &&
  //     w_seen_q` samples both sides at the same sampled cycle, so a
  //     same-cycle clear means aw_seen_q/w_seen_q always read 0 exactly
  //     when $rose(bvalid) is true, on every single fire.
  //
  // The fix: clear one cycle *after* the fire (bvalid_q lags bvalid by
  // one register), so aw_seen_q/w_seen_q are still 1 for the property to
  // observe during the rise itself, and only clear once that specific
  // pair has actually been consumed -- independent of whichever earlier
  // transaction's response happens to get accepted around the same time.
  logic bvalid_q;
  always_ff @(posedge clk or negedge rst_n)
    if (!rst_n) bvalid_q <= 1'b0;
    else        bvalid_q <= bvalid;

  logic aw_seen_q, w_seen_q;
  always_ff @(posedge clk or negedge rst_n) begin
    if (!rst_n) begin
      aw_seen_q <= 1'b0;
      w_seen_q  <= 1'b0;
    end else begin
      if (bvalid && !bvalid_q) begin
        aw_seen_q <= 1'b0;
        w_seen_q  <= 1'b0;
      end
      if (awvalid && awready) aw_seen_q <= 1'b1;
      if (wvalid  && wready)  w_seen_q  <= 1'b1;
    end
  end

  // 1. The slave must wait for AWVALID, AWREADY, WVALID, and
  //    WREADY to all have been asserted (AW and W handshakes both
  //    complete) before asserting BVALID.
  a_bvalid_requires_aw_and_w: assert property ($rose(bvalid) |-> aw_seen_q && w_seen_q)
    else $error("BVALID asserted before AW and W handshakes both completed");

  // 2. The slave must not wait for BREADY before asserting BVALID.
  // `##0` in a `##[0:1]` range here would be dead code: the antecedent's
  // own `!bvalid` already rules out bvalid being true at that same
  // sampled cycle, so the range collapsed to exactly `##1` -- i.e.
  // `|=>` (which is defined as `|-> ##1`). Note `bready` never appears
  // in this property at all -- that omission, not the delay width, is
  // what actually encodes "does not wait for BREADY": a fixed,
  // BREADY-independent deadline for BVALID to rise.
  a_bvalid_not_wait_bready: assert property ((aw_seen_q && w_seen_q && !bvalid) |=> bvalid)
    else $error("BVALID delayed past expected latency after AW+W complete -- possible BREADY dependency");


  // 3. Whenever the slave asserts BVALID, BRESP must be a legal AXI4-Lite
  //    write response code (OKAY or SLVERR). 
  a_bresp_legal_value: assert property (bvalid |-> (bresp == OKAY || bresp == SLVERR))
    else $error("BRESP is neither OKAY nor SLVERR while BVALID is asserted");

  // Response-code correctness against the DUT's own address range.
  logic [ADDR_WIDTH-1:0] awaddr_latched_ref;
  always_ff @(posedge clk) begin
    if (awvalid && awready) awaddr_latched_ref <= awaddr;
  end

  a_write_okay_in_range: assert property (
    $rose(bvalid) && in_range(awaddr_latched_ref) |-> bresp == OKAY
  ) else $error("In-range write did not return OKAY");

  a_write_slverr_out_of_range: assert property (
    $rose(bvalid) && !in_range(awaddr_latched_ref) |-> bresp == SLVERR
  ) else $error("Out-of-range write did not return SLVERR");

  // Write-strobe byte-lane correctness, whitebox check against the
  // connected `regfile` array.
  logic [DATA_WIDTH-1:0]   wdata_latched_ref;
  logic [DATA_WIDTH/8-1:0] wstrb_latched_ref;
  logic [DATA_WIDTH-1:0]   regfile_before_write [NUM_REGS];
  always_ff @(posedge clk) begin
    if (wvalid && wready) begin
      wdata_latched_ref <= wdata;
      wstrb_latched_ref <= wstrb;
    end
    if (awvalid && awready) regfile_before_write <= regfile;
  end

  genvar gb;
  generate
    for (gb = 0; gb < DATA_WIDTH/8; gb++) begin : g_strobe_byte_check
      a_write_enabled_byte_updated: assert property (
        $rose(bvalid) && in_range(awaddr_latched_ref) && wstrb_latched_ref[gb]
        |-> regfile[awaddr_latched_ref[ADDR_WIDTH-1:ADDR_LSB]][gb*8+:8] == wdata_latched_ref[gb*8+:8]
      ) else $error("Byte lane %0d enabled by WSTRB was not written with WDATA", gb);

      a_write_disabled_byte_preserved: assert property (
        $rose(bvalid) && in_range(awaddr_latched_ref) && !wstrb_latched_ref[gb]
        |-> regfile[awaddr_latched_ref[ADDR_WIDTH-1:ADDR_LSB]][gb*8+:8]
              == regfile_before_write[awaddr_latched_ref[ADDR_WIDTH-1:ADDR_LSB]][gb*8+:8]
      ) else $error("Byte lane %0d masked by WSTRB was modified anyway", gb);
    end
  endgenerate

  // Outstanding-transaction restriction
  a_bvalid_clears_next_cycle: assert property (bvalid && bready |=> !bvalid)
    else $error("BVALID did not deassert the cycle after being accepted");

  // ****************************************************************************
  // ************ 4.3 Specific rules for AR / R -- slave side ******************* 
  // ****************************************************************************

  // 1. The slave must wait for both ARVALID and ARREADY to be
  //    asserted before asserting RVALID.
  a_rvalid_requires_ar: assert property ($rose(rvalid) |-> $past(arvalid && arready))
    else $error("RVALID asserted without a preceding ARVALID&ARREADY handshake");

  // 2. The slave must not wait for RREADY before asserting
  //    RVALID.
  a_ar_leads_to_rvalid: assert property ((arvalid && arready) |=> rvalid)
    else $error("ARVALID&ARREADY handshake did not produce RVALID next cycle -- possible RREADY dependency");

  // 3. The slave asserts RVALID only when it drives valid RDATA.
  a_rvalid_requires_rdata: assert property (rvalid |-> !$isunknown(rdata))
    else $error("RVALID asserted while RDATA is unknown");

  a_read_okay_in_range: assert property (
    (arvalid && arready && in_range(araddr)) |=> rresp == OKAY
  ) else $error("In-range read did not return OKAY");

  a_read_slverr_out_of_range: assert property (
    (arvalid && arready && !in_range(araddr)) |=> (rresp == SLVERR && rdata == '0)
  ) else $error("Out-of-range read did not return SLVERR with rdata==0");

  // Legal response-code check, read side (parallel to a_bresp_legal_value).
  a_rresp_legal_value: assert property (rvalid |-> (rresp == OKAY || rresp == SLVERR))
    else $error("RRESP is neither OKAY nor SLVERR while RVALID is asserted");

  // Outstanding-transaction restriction
  a_no_new_ar_while_rvalid: assert property (rvalid && !rready |-> !arready)
    else $error("ARREADY asserted while a prior RVALID is still outstanding");



endmodule
